! 5/26/2025 8:47:34 PM
! C:\ANRITSUVNA\DORIAN\26\V2_MEAS2.S1P
! CHANNEL.1
! TR.MEASUREMENT
! CORRECTED.DATA
! RF.CORRECTION: FULL.TWO.PORT.CAL.PORT.1.2
! AVERAGING: 1 PointByPoint
! IF.BANDWIDTH: 300HZ
! SWEEPTYPE:  FREQ.SWEEP(Linear)
! Reference Plane Port Info
! PORT:              PORT1             
! DISTANCE:          0  m              
! TIME:              0  s              
! PHASE.OFFSET:      0 °               
! LOSS:              0  dB             
! REF.LOSS:          0  dB             
! REF.FREQ:          0  Hz             
! Power Info
! POWER:             5  dBm            
! EFF.POWER:         5  dBm            
# GHZ S RI R 50.0
! FREQ.GHZ         S11RE         S11IM         
!; PortSelection: Port_1
   0.700000000     0.7087669    0.5389026  
   0.700750000     0.7122278    0.5332540  
   0.701500000     0.7155520    0.5275148  
   0.702250000     0.7189482    0.5222256  
   0.703000000     0.7221237    0.5167033  
   0.703750000     0.7253293    0.5110065  
   0.704500000     0.7283923    0.5055406  
   0.705250000     0.7317614    0.4993899  
   0.706000000     0.7346444    0.4939556  
   0.706750000     0.7378055    0.4882038  
   0.707500000     0.7406499    0.4824084  
   0.708250000     0.7436181    0.4763863  
   0.709000000     0.7464615    0.4707580  
   0.709750000     0.7497303    0.4646486  
   0.710500000     0.7526612    0.4587089  
   0.711250000     0.7556549    0.4525972  
   0.712000000     0.7588675    0.4464422  
   0.712750000     0.7615106    0.4401495  
   0.713500000     0.7646008    0.4339047  
   0.714250000     0.7673306    0.4275317  
   0.715000000     0.7703649    0.4212016  
   0.715750000     0.7733921    0.4147142  
   0.716500000     0.7760416    0.4083094  
   0.717250000     0.7788547    0.4016796  
   0.718000000     0.7818717    0.3951978  
   0.718750000     0.7844896    0.3886489  
   0.719500000     0.7871979    0.3821608  
   0.720250000     0.7897378    0.3755322  
   0.721000000     0.7922429    0.3690395  
   0.721750000     0.7946784    0.3625553  
   0.722500000     0.7972445    0.3559380  
   0.723250000     0.7992918    0.3496993  
   0.724000000     0.8015783    0.3431957  
   0.724750000     0.8035390    0.3369482  
   0.725500000     0.8057268    0.3305479  
   0.726250000     0.8076088    0.3241462  
   0.727000000     0.8096613    0.3179160  
   0.727750000     0.8115959    0.3115751  
   0.728500000     0.8132760    0.3052628  
   0.729250000     0.8152469    0.2987626  
   0.730000000     0.8169025    0.2927822  
   0.730750000     0.8187023    0.2864799  
   0.731500000     0.8203377    0.2800123  
   0.732250000     0.8217421    0.2737670  
   0.733000000     0.8235369    0.2674432  
   0.733750000     0.8249287    0.2611745  
   0.734500000     0.8263720    0.2549666  
   0.735250000     0.8276905    0.2484249  
   0.736000000     0.8292348    0.2418866  
   0.736750000     0.8302834    0.2353038  
   0.737500000     0.8315369    0.2287604  
   0.738250000     0.8325599    0.2224750  
   0.739000000     0.8335420    0.2159211  
   0.739750000     0.8349178    0.2094521  
   0.740500000     0.8356135    0.2029511  
   0.741250000     0.8368849    0.1965871  
   0.742000000     0.8377647    0.1898123  
   0.742750000     0.8383718    0.1832930  
   0.743500000     0.8388228    0.1765820  
   0.744250000     0.8397441    0.1700537  
   0.745000000     0.8405114    0.1634856  
   0.745750000     0.8405665    0.1565349  
   0.746500000     0.8411369    0.1498965  
   0.747250000     0.8416741    0.1436321  
   0.748000000     0.8419361    0.1368226  
   0.748750000     0.8422140    0.1300879  
   0.749500000     0.8423081    0.1238459  
   0.750250000     0.8424356    0.1169158  
   0.751000000     0.8427597    0.1104342  
   0.751750000     0.8427340    0.1037683  
   0.752500000     0.8424622    0.0971816  
   0.753250000     0.8427082    0.0904763  
   0.754000000     0.8425078    0.0839589  
   0.754750000     0.8421445    0.0772205  
   0.755500000     0.8420070    0.0706430  
   0.756250000     0.8420123    0.0638884  
   0.757000000     0.8414153    0.0572426  
   0.757750000     0.8407461    0.0503664  
   0.758500000     0.8407649    0.0434436  
   0.759250000     0.8398245    0.0367161  
   0.760000000     0.8393964    0.0302121  
   0.760750000     0.8386325    0.0234396  
   0.761500000     0.8378000    0.0165821  
   0.762250000     0.8369094    0.0098478  
   0.763000000     0.8360930    0.0034584  
   0.763750000     0.8350937   -0.0034395  
   0.764500000     0.8340155   -0.0101056  
   0.765250000     0.8330163   -0.0166804  
   0.766000000     0.8318658   -0.0232828  
   0.766750000     0.8305419   -0.0297952  
   0.767500000     0.8293461   -0.0363527  
   0.768250000     0.8280367   -0.0430999  
   0.769000000     0.8267617   -0.0497595  
   0.769750000     0.8253964   -0.0564535  
   0.770500000     0.8239052   -0.0631222  
   0.771250000     0.8223330   -0.0696304  
   0.772000000     0.8206148   -0.0761596  
   0.772750000     0.8189938   -0.0827650  
   0.773500000     0.8171947   -0.0894044  
   0.774250000     0.8152382   -0.0959802  
   0.775000000     0.8134076   -0.1025852  
   0.775750000     0.8113106   -0.1091818  
   0.776500000     0.8090714   -0.1158675  
   0.777250000     0.8069782   -0.1225111  
   0.778000000     0.8046242   -0.1289972  
   0.778750000     0.8023127   -0.1356565  
   0.779500000     0.7999002   -0.1421566  
   0.780250000     0.7972305   -0.1488151  
   0.781000000     0.7947897   -0.1554027  
   0.781750000     0.7920052   -0.1619771  
   0.782500000     0.7891541   -0.1685937  
   0.783250000     0.7862212   -0.1752207  
   0.784000000     0.7834014   -0.1817090  
   0.784750000     0.7803623   -0.1882771  
   0.785500000     0.7772707   -0.1948672  
   0.786250000     0.7740579   -0.2013207  
   0.787000000     0.7707804   -0.2078876  
   0.787750000     0.7674707   -0.2142955  
   0.788500000     0.7639807   -0.2207185  
   0.789250000     0.7605025   -0.2271878  
   0.790000000     0.7568853   -0.2334916  
   0.790750000     0.7532895   -0.2398357  
   0.791500000     0.7495736   -0.2462244  
   0.792250000     0.7457751   -0.2523147  
   0.793000000     0.7421504   -0.2583508  
   0.793750000     0.7379798   -0.2646167  
   0.794500000     0.7339180   -0.2707308  
   0.795250000     0.7299535   -0.2765665  
   0.796000000     0.7257327   -0.2825750  
   0.796750000     0.7215715   -0.2885758  
   0.797500000     0.7173734   -0.2945369  
   0.798250000     0.7130368   -0.3004523  
   0.799000000     0.7086918   -0.3063552  
   0.799750000     0.7043425   -0.3120323  
   0.800500000     0.6997139   -0.3178781  
   0.801250000     0.6950374   -0.3236261  
   0.802000000     0.6904234   -0.3291621  
   0.802750000     0.6855631   -0.3348739  
   0.803500000     0.6807613   -0.3404795  
   0.804250000     0.6759029   -0.3460494  
   0.805000000     0.6707652   -0.3514660  
   0.805750000     0.6656915   -0.3567829  
   0.806500000     0.6605452   -0.3620319  
   0.807250000     0.6552579   -0.3672153  
   0.808000000     0.6497958   -0.3725268  
   0.808750000     0.6445825   -0.3777346  
   0.809500000     0.6393087   -0.3830546  
   0.810250000     0.6337875   -0.3880323  
   0.811000000     0.6279400   -0.3933342  
   0.811750000     0.6222817   -0.3981829  
   0.812500000     0.6162949   -0.4027587  
   0.813250000     0.6106155   -0.4077109  
   0.814000000     0.6043831   -0.4124002  
   0.814750000     0.5984672   -0.4171276  
   0.815500000     0.5923810   -0.4215041  
   0.816250000     0.5861611   -0.4259350  
   0.817000000     0.5796759   -0.4302583  
   0.817750000     0.5735273   -0.4348312  
   0.818500000     0.5671270   -0.4389611  
   0.819250000     0.5604683   -0.4427155  
   0.820000000     0.5540885   -0.4468306  
   0.820750000     0.5475090   -0.4507962  
   0.821500000     0.5410662   -0.4547443  
   0.822250000     0.5341825   -0.4581861  
   0.823000000     0.5274999   -0.4620315  
   0.823750000     0.5208213   -0.4654526  
   0.824500000     0.5139655   -0.4689645  
   0.825250000     0.5070513   -0.4722310  
   0.826000000     0.5003545   -0.4755483  
   0.826750000     0.4933548   -0.4785860  
   0.827500000     0.4863389   -0.4817086  
   0.828250000     0.4792977   -0.4844022  
   0.829000000     0.4723214   -0.4872082  
   0.829750000     0.4652051   -0.4896742  
   0.830500000     0.4585703   -0.4924011  
   0.831250000     0.4508315   -0.4949164  
   0.832000000     0.4439616   -0.4972243  
   0.832750000     0.4369099   -0.4993679  
   0.833500000     0.4296563   -0.5015855  
   0.834250000     0.4224938   -0.5035849  
   0.835000000     0.4152074   -0.5055540  
   0.835750000     0.4079851   -0.5074773  
   0.836500000     0.4010006   -0.5090530  
   0.837250000     0.3935203   -0.5107636  
   0.838000000     0.3861658   -0.5122491  
   0.838750000     0.3789670   -0.5135990  
   0.839500000     0.3715344   -0.5149108  
   0.840250000     0.3640655   -0.5160637  
   0.841000000     0.3568208   -0.5170471  
   0.841750000     0.3492486   -0.5181269  
   0.842500000     0.3417975   -0.5187359  
   0.843250000     0.3341207   -0.5194179  
   0.844000000     0.3266358   -0.5198727  
   0.844750000     0.3191475   -0.5200624  
   0.845500000     0.3115366   -0.5204064  
   0.846250000     0.3038471   -0.5205460  
   0.847000000     0.2962931   -0.5204751  
   0.847750000     0.2887042   -0.5203969  
   0.848500000     0.2808915   -0.5198269  
   0.849250000     0.2730735   -0.5194687  
   0.850000000     0.2654509   -0.5187900  
   0.850750000     0.2576715   -0.5179266  
   0.851500000     0.2500290   -0.5170643  
   0.852250000     0.2422948   -0.5158530  
   0.853000000     0.2346009   -0.5144340  
   0.853750000     0.2266634   -0.5129537  
   0.854500000     0.2191411   -0.5112485  
   0.855250000     0.2114131   -0.5095682  
   0.856000000     0.2039998   -0.5074394  
   0.856750000     0.1962724   -0.5054546  
   0.857500000     0.1888287   -0.5030304  
   0.858250000     0.1813026   -0.5006651  
   0.859000000     0.1737283   -0.4981457  
   0.859750000     0.1662031   -0.4951333  
   0.860500000     0.1588315   -0.4920778  
   0.861250000     0.1517485   -0.4885924  
   0.862000000     0.1446135   -0.4853300  
   0.862750000     0.1378461   -0.4814713  
   0.863500000     0.1307863   -0.4779334  
   0.864250000     0.1242604   -0.4739030  
   0.865000000     0.1176972   -0.4699214  
   0.865750000     0.1112759   -0.4659371  
   0.866500000     0.1048776   -0.4616455  
   0.867250000     0.0988544   -0.4571827  
   0.868000000     0.0925770   -0.4526695  
   0.868750000     0.0865739   -0.4480983  
   0.869500000     0.0806794   -0.4433545  
   0.870250000     0.0751315   -0.4386523  
   0.871000000     0.0692928   -0.4335502  
   0.871750000     0.0638248   -0.4285598  
   0.872500000     0.0584281   -0.4232445  
   0.873250000     0.0532264   -0.4179935  
   0.874000000     0.0482481   -0.4125028  
   0.874750000     0.0433831   -0.4069407  
   0.875500000     0.0384903   -0.4013971  
   0.876250000     0.0338214   -0.3956126  
   0.877000000     0.0293208   -0.3898579  
   0.877750000     0.0248881   -0.3838518  
   0.878500000     0.0206845   -0.3780520  
   0.879250000     0.0164601   -0.3721545  
   0.880000000     0.0124300   -0.3662184  
   0.880750000     0.0085834   -0.3599780  
   0.881500000     0.0047188   -0.3537965  
   0.882250000     0.0008998   -0.3475766  
   0.883000000    -0.0026325   -0.3410621  
   0.883750000    -0.0060784   -0.3345935  
   0.884500000    -0.0095309   -0.3277316  
   0.885250000    -0.0126283   -0.3209773  
   0.886000000    -0.0156398   -0.3140293  
   0.886750000    -0.0183375   -0.3070893  
   0.887500000    -0.0209466   -0.2998230  
   0.888250000    -0.0232639   -0.2926097  
   0.889000000    -0.0254652   -0.2853552  
   0.889750000    -0.0273338   -0.2780540  
   0.890500000    -0.0291218   -0.2707352  
   0.891250000    -0.0306720   -0.2632965  
   0.892000000    -0.0319625   -0.2558638  
   0.892750000    -0.0331792   -0.2483290  
   0.893500000    -0.0341291   -0.2407701  
   0.894250000    -0.0348461   -0.2332240  
   0.895000000    -0.0354044   -0.2254368  
   0.895750000    -0.0356543   -0.2176715  
   0.896500000    -0.0357215   -0.2099778  
   0.897250000    -0.0355182   -0.2021827  
   0.898000000    -0.0350748   -0.1943766  
   0.898750000    -0.0342289   -0.1864867  
   0.899500000    -0.0332099   -0.1786630  
   0.900250000    -0.0319271   -0.1710224  
   0.901000000    -0.0303061   -0.1633603  
   0.901750000    -0.0284901   -0.1557752  
   0.902500000    -0.0264402   -0.1482932  
   0.903250000    -0.0241669   -0.1409072  
   0.904000000    -0.0216149   -0.1336454  
   0.904750000    -0.0189604   -0.1263448  
   0.905500000    -0.0160333   -0.1192512  
   0.906250000    -0.0128831   -0.1122322  
   0.907000000    -0.0094651   -0.1053419  
   0.907750000    -0.0059866   -0.0984811  
   0.908500000    -0.0022565   -0.0917802  
   0.909250000     0.0018050   -0.0852138  
   0.910000000     0.0060339   -0.0787052  
   0.910750000     0.0102867   -0.0723162  
   0.911500000     0.0149701   -0.0660580  
   0.912250000     0.0197823   -0.0600240  
   0.913000000     0.0249120   -0.0540607  
   0.913750000     0.0300972   -0.0484018  
   0.914500000     0.0355042   -0.0428368  
   0.915250000     0.0411630   -0.0375108  
   0.916000000     0.0466850   -0.0324635  
   0.916750000     0.0526259   -0.0275398  
   0.917500000     0.0585990   -0.0228206  
   0.918250000     0.0647155   -0.0182611  
   0.919000000     0.0709982   -0.0138641  
   0.919750000     0.0773197   -0.0096346  
   0.920500000     0.0837813   -0.0057251  
   0.921250000     0.0903482   -0.0018943  
   0.922000000     0.0970333    0.0017144  
   0.922750000     0.1039055    0.0050332  
   0.923500000     0.1107510    0.0081796  
   0.924250000     0.1176848    0.0111148  
   0.925000000     0.1245656    0.0139219  
   0.925750000     0.1314451    0.0164972  
   0.926500000     0.1386345    0.0188850  
   0.927250000     0.1458044    0.0211676  
   0.928000000     0.1529681    0.0232195  
   0.928750000     0.1603309    0.0251631  
   0.929500000     0.1677446    0.0267933  
   0.930250000     0.1752688    0.0282703  
   0.931000000     0.1828859    0.0295052  
   0.931750000     0.1903688    0.0304181  
   0.932500000     0.1980605    0.0312018  
   0.933250000     0.2056414    0.0318551  
   0.934000000     0.2134410    0.0321612  
   0.934750000     0.2211148    0.0323070  
   0.935500000     0.2288576    0.0322571  
   0.936250000     0.2367522    0.0319998  
   0.937000000     0.2444916    0.0313298  
   0.937750000     0.2522109    0.0304816  
   0.938500000     0.2599441    0.0292848  
   0.939250000     0.2676418    0.0280321  
   0.940000000     0.2750562    0.0264667  
   0.940750000     0.2827053    0.0247780  
   0.941500000     0.2900519    0.0227096  
   0.942250000     0.2973130    0.0206057  
   0.943000000     0.3045579    0.0182751  
   0.943750000     0.3116466    0.0157773  
   0.944500000     0.3187875    0.0131070  
   0.945250000     0.3257264    0.0103504  
   0.946000000     0.3326996    0.0074763  
   0.946750000     0.3395009    0.0044294  
   0.947500000     0.3462378    0.0012336  
   0.948250000     0.3529175   -0.0022194  
   0.949000000     0.3595109   -0.0057681  
   0.949750000     0.3659924   -0.0094559  
   0.950500000     0.3724634   -0.0131815  
   0.951250000     0.3788087   -0.0171642  
   0.952000000     0.3851248   -0.0212594  
   0.952750000     0.3914356   -0.0254591  
   0.953500000     0.3976825   -0.0298248  
   0.954250000     0.4038073   -0.0343043  
   0.955000000     0.4100331   -0.0389443  
   0.955750000     0.4159753   -0.0438007  
   0.956500000     0.4219196   -0.0488907  
   0.957250000     0.4277245   -0.0542223  
   0.958000000     0.4333558   -0.0596594  
   0.958750000     0.4389533   -0.0652954  
   0.959500000     0.4442708   -0.0710245  
   0.960250000     0.4494150   -0.0770259  
   0.961000000     0.4544343   -0.0830746  
   0.961750000     0.4592366   -0.0891180  
   0.962500000     0.4639495   -0.0954124  
   0.963250000     0.4683561   -0.1017183  
   0.964000000     0.4728692   -0.1079327  
   0.964750000     0.4770836   -0.1144894  
   0.965500000     0.4812358   -0.1210086  
   0.966250000     0.4854357   -0.1276457  
   0.967000000     0.4892759   -0.1342985  
   0.967750000     0.4931549   -0.1410846  
   0.968500000     0.4968821   -0.1480894  
   0.969250000     0.5003033   -0.1550061  
   0.970000000     0.5037588   -0.1622081  
   0.970750000     0.5067614   -0.1693997  
   0.971500000     0.5098690   -0.1766636  
   0.972250000     0.5127221   -0.1840898  
   0.973000000     0.5153521   -0.1915271  
   0.973750000     0.5177975   -0.1990988  
   0.974500000     0.5199062   -0.2065964  
   0.975250000     0.5221308   -0.2140990  
   0.976000000     0.5238985   -0.2217479  
   0.976750000     0.5257178   -0.2290282  
   0.977500000     0.5274723   -0.2367239  
   0.978250000     0.5288804   -0.2440633  
   0.979000000     0.5302870   -0.2518887  
   0.979750000     0.5315359   -0.2594741  
   0.980500000     0.5326644   -0.2671773  
   0.981250000     0.5334574   -0.2749587  
   0.982000000     0.5341618   -0.2826024  
   0.982750000     0.5346904   -0.2903261  
   0.983500000     0.5350838   -0.2979953  
   0.984250000     0.5354559   -0.3056300  
   0.985000000     0.5355039   -0.3134137  
   0.985750000     0.5355193   -0.3209504  
   0.986500000     0.5355716   -0.3284248  
   0.987250000     0.5352353   -0.3360690  
   0.988000000     0.5349283   -0.3437669  
   0.988750000     0.5345129   -0.3513148  
   0.989500000     0.5339563   -0.3589567  
   0.990250000     0.5333266   -0.3664473  
   0.991000000     0.5324016   -0.3742960  
   0.991750000     0.5312850   -0.3818522  
   0.992500000     0.5301619   -0.3892615  
   0.993250000     0.5289083   -0.3969813  
   0.994000000     0.5273672   -0.4044281  
   0.994750000     0.5258643   -0.4120390  
   0.995500000     0.5243283   -0.4192240  
   0.996250000     0.5221313   -0.4267362  
   0.997000000     0.5201703   -0.4341490  
   0.997750000     0.5182196   -0.4412598  
   0.998500000     0.5162128   -0.4484331  
   0.999250000     0.5138645   -0.4556981  
   1.000000000     0.5114715   -0.4626711  
