! 5/26/2025 8:58:12 PM
! C:\ANRITSUVNA\DORIAN\26\V1_THRU2.S2P
! CHANNEL.1
! TR.MEASUREMENT
! CORRECTED.DATA
! RF.CORRECTION: FULL.TWO.PORT.CAL.PORT.1.2
! AVERAGING: 1 PointByPoint
! IF.BANDWIDTH: 300HZ
! SWEEPTYPE:  FREQ.SWEEP(Linear)
! Reference Plane Port Info
! PORT:              PORT1              PORT2             
! DISTANCE:          0  m               0  m              
! TIME:              0  s               0  s              
! PHASE.OFFSET:      0 °                0 °               
! LOSS:              0  dB              0  dB             
! REF.LOSS:          0  dB              0  dB             
! REF.FREQ:          0  Hz              0  Hz             
! Power Info
! POWER:             5  dBm             5  dBm            
! EFF.POWER:         5  dBm             5  dBm            
# GHZ S RI R 50.0
! FREQ.GHZ         S11RE         S11IM         S21RE         S21IM         S12RE         S12IM         S22RE         S22IM         
!; PortSelection: Port_12
   0.700000000    -0.0176639    0.0256421    -0.5604060   -0.8051746    -0.5608100   -0.8046318    -0.0203643    0.0221186 
   0.700750000    -0.0174916    0.0255618    -0.5621853   -0.8038057    -0.5628024   -0.8031317    -0.0199897    0.0220848 
   0.701500000    -0.0171975    0.0254646    -0.5641368   -0.8025669    -0.5647975   -0.8019972    -0.0199959    0.0217974 
   0.702250000    -0.0167928    0.0254312    -0.5663161   -0.8012433    -0.5669129   -0.8008736    -0.0197024    0.0217787 
   0.703000000    -0.0166939    0.0251518    -0.5681921   -0.7999126    -0.5687168   -0.7991976    -0.0195648    0.0216022 
   0.703750000    -0.0163395    0.0251098    -0.5704607   -0.7984950    -0.5709158   -0.7977586    -0.0190901    0.0216616 
   0.704500000    -0.0162544    0.0250512    -0.5721243   -0.7972024    -0.5725614   -0.7965559    -0.0190796    0.0213836 
   0.705250000    -0.0158133    0.0247592    -0.5742503   -0.7957448    -0.5747796   -0.7948227    -0.0188704    0.0212136 
   0.706000000    -0.0155724    0.0246649    -0.5764884   -0.7945958    -0.5766354   -0.7936313    -0.0184096    0.0214607 
   0.706750000    -0.0153289    0.0245624    -0.5784088   -0.7933081    -0.5784402   -0.7923134    -0.0183814    0.0210231 
   0.707500000    -0.0152216    0.0243933    -0.5801886   -0.7918156    -0.5804226   -0.7908344    -0.0180297    0.0211113 
   0.708250000    -0.0148743    0.0242468    -0.5822214   -0.7907416    -0.5824755   -0.7892355    -0.0179562    0.0208818 
   0.709000000    -0.0145722    0.0241800    -0.5840636   -0.7890548    -0.5844443   -0.7877711    -0.0176779    0.0207146 
   0.709750000    -0.0144353    0.0238998    -0.5858610   -0.7878644    -0.5863405   -0.7863249    -0.0175962    0.0205407 
   0.710500000    -0.0141908    0.0237792    -0.5879637   -0.7862870    -0.5882755   -0.7848837    -0.0174926    0.0202312 
   0.711250000    -0.0138763    0.0236858    -0.5899286   -0.7850346    -0.5902457   -0.7832402    -0.0172134    0.0202346 
   0.712000000    -0.0135176    0.0235647    -0.5920730   -0.7835532    -0.5922788   -0.7819695    -0.0170781    0.0200865 
   0.712750000    -0.0133543    0.0233882    -0.5938621   -0.7822751    -0.5940640   -0.7802219    -0.0168888    0.0199909 
   0.713500000    -0.0130978    0.0232372    -0.5957877   -0.7807419    -0.5957409   -0.7789838    -0.0167181    0.0198773 
   0.714250000    -0.0129877    0.0230711    -0.5977670   -0.7791290    -0.5975818   -0.7775468    -0.0165565    0.0197286 
   0.715000000    -0.0126708    0.0228959    -0.5994788   -0.7776635    -0.5996507   -0.7758073    -0.0163810    0.0195662 
   0.715750000    -0.0124063    0.0228076    -0.6015313   -0.7762992    -0.6013112   -0.7746077    -0.0163145    0.0193046 
   0.716500000    -0.0122405    0.0226412    -0.6033048   -0.7746799    -0.6033354   -0.7731829    -0.0160861    0.0193081 
   0.717250000    -0.0119850    0.0223860    -0.6049232   -0.7731430    -0.6051000   -0.7714883    -0.0160180    0.0190240 
   0.718000000    -0.0116247    0.0221616    -0.6070126   -0.7715716    -0.6069257   -0.7699782    -0.0158787    0.0188146 
   0.718750000    -0.0114938    0.0221663    -0.6085857   -0.7701189    -0.6087341   -0.7684184    -0.0157861    0.0186887 
   0.719500000    -0.0112631    0.0219499    -0.6104912   -0.7684077    -0.6105507   -0.7670002    -0.0156755    0.0182774 
   0.720250000    -0.0110396    0.0219103    -0.6122076   -0.7670014    -0.6124699   -0.7656175    -0.0155953    0.0180885 
   0.721000000    -0.0107972    0.0215449    -0.6139676   -0.7652277    -0.6143065   -0.7637386    -0.0154450    0.0180115 
   0.721750000    -0.0105945    0.0214055    -0.6156717   -0.7637264    -0.6158547   -0.7625684    -0.0154471    0.0176636 
   0.722500000    -0.0103477    0.0214074    -0.6176298   -0.7620984    -0.6176412   -0.7610394    -0.0151606    0.0177924 
   0.723250000    -0.0100978    0.0211580    -0.6192573   -0.7604915    -0.6196157   -0.7592546    -0.0150805    0.0174587 
   0.724000000    -0.0100122    0.0210171    -0.6208943   -0.7590328    -0.6212159   -0.7580031    -0.0150258    0.0173148 
   0.724750000    -0.0098248    0.0210531    -0.6227828   -0.7575001    -0.6228939   -0.7564526    -0.0149519    0.0171242 
   0.725500000    -0.0095279    0.0208208    -0.6246052   -0.7559912    -0.6248053   -0.7549840    -0.0147842    0.0171000 
   0.726250000    -0.0094282    0.0206369    -0.6260893   -0.7543296    -0.6264112   -0.7533215    -0.0147263    0.0167279 
   0.727000000    -0.0092298    0.0204131    -0.6278837   -0.7525700    -0.6278589   -0.7516856    -0.0147160    0.0164767 
   0.727750000    -0.0089109    0.0203708    -0.6294947   -0.7509973    -0.6298627   -0.7504660    -0.0144550    0.0164974 
   0.728500000    -0.0088391    0.0203332    -0.6311522   -0.7494881    -0.6314841   -0.7487403    -0.0143050    0.0163028 
   0.729250000    -0.0085989    0.0200982    -0.6328838   -0.7479617    -0.6332114   -0.7473010    -0.0142233    0.0160956 
   0.730000000    -0.0084790    0.0198574    -0.6347605   -0.7460956    -0.6349426   -0.7455969    -0.0140962    0.0159674 
   0.730750000    -0.0082495    0.0196392    -0.6362822   -0.7446562    -0.6364796   -0.7438837    -0.0139115    0.0159818 
   0.731500000    -0.0081453    0.0194865    -0.6378176   -0.7429950    -0.6384283   -0.7424860    -0.0138334    0.0154921 
   0.732250000    -0.0078370    0.0192925    -0.6397972   -0.7413856    -0.6400352   -0.7411734    -0.0138494    0.0154677 
   0.733000000    -0.0078619    0.0192461    -0.6413912   -0.7397468    -0.6415173   -0.7393314    -0.0136158    0.0152097 
   0.733750000    -0.0076863    0.0191119    -0.6432602   -0.7381431    -0.6433319   -0.7380025    -0.0135695    0.0151716 
   0.734500000    -0.0075302    0.0189206    -0.6449059   -0.7363995    -0.6446919   -0.7363414    -0.0133337    0.0149584 
   0.735250000    -0.0073894    0.0186758    -0.6463243   -0.7351719    -0.6462445   -0.7348185    -0.0133216    0.0150031 
   0.736000000    -0.0071578    0.0186857    -0.6481743   -0.7333351    -0.6479246   -0.7334156    -0.0132729    0.0147464 
   0.736750000    -0.0070983    0.0184985    -0.6497791   -0.7317962    -0.6495637   -0.7315820    -0.0131079    0.0146845 
   0.737500000    -0.0068828    0.0182561    -0.6513605   -0.7302977    -0.6513049   -0.7301666    -0.0130145    0.0145494 
   0.738250000    -0.0067571    0.0181046    -0.6530257   -0.7286353    -0.6527638   -0.7287418    -0.0127495    0.0143788 
   0.739000000    -0.0065947    0.0179647    -0.6545411   -0.7270955    -0.6542982   -0.7270055    -0.0126522    0.0143896 
   0.739750000    -0.0061895    0.0177909    -0.6562101   -0.7253562    -0.6559863   -0.7255620    -0.0124463    0.0139785 
   0.740500000    -0.0062905    0.0177852    -0.6578029   -0.7238977    -0.6576502   -0.7241367    -0.0123620    0.0139021 
   0.741250000    -0.0059262    0.0176588    -0.6594474   -0.7222247    -0.6590790   -0.7226335    -0.0122297    0.0138624 
   0.742000000    -0.0058236    0.0175465    -0.6610957   -0.7209218    -0.6607280   -0.7209930    -0.0121497    0.0136479 
   0.742750000    -0.0056422    0.0173149    -0.6627619   -0.7191451    -0.6622284   -0.7195079    -0.0121178    0.0136483 
   0.743500000    -0.0054146    0.0170990    -0.6642739   -0.7175385    -0.6638566   -0.7178665    -0.0119224    0.0135219 
   0.744250000    -0.0051573    0.0170870    -0.6660272   -0.7161251    -0.6652187   -0.7164596    -0.0117625    0.0132875 
   0.745000000    -0.0049205    0.0167911    -0.6675553   -0.7144565    -0.6668046   -0.7149184    -0.0116157    0.0132420 
   0.745750000    -0.0048509    0.0167134    -0.6690714   -0.7132027    -0.6683556   -0.7129167    -0.0114206    0.0131841 
   0.746500000    -0.0045828    0.0166583    -0.6707246   -0.7115534    -0.6702479   -0.7117764    -0.0112727    0.0129426 
   0.747250000    -0.0044525    0.0165123    -0.6723077   -0.7099075    -0.6717798   -0.7102246    -0.0113365    0.0127878 
   0.748000000    -0.0040944    0.0163468    -0.6740107   -0.7082563    -0.6731982   -0.7085908    -0.0112253    0.0129667 
   0.748750000    -0.0038596    0.0163696    -0.6755908   -0.7067425    -0.6747119   -0.7069913    -0.0111802    0.0127335 
   0.749500000    -0.0034881    0.0163646    -0.6770849   -0.7052197    -0.6762199   -0.7053129    -0.0107537    0.0123803 
   0.750250000    -0.0033638    0.0160138    -0.6787844   -0.7035388    -0.6780397   -0.7040044    -0.0107622    0.0124535 
   0.751000000    -0.0031711    0.0158611    -0.6804526   -0.7019601    -0.6796165   -0.7021421    -0.0107167    0.0122366 
   0.751750000    -0.0027571    0.0157833    -0.6821077   -0.7004985    -0.6809801   -0.7008480    -0.0106189    0.0121558 
   0.752500000    -0.0026467    0.0156655    -0.6833631   -0.6990806    -0.6827130   -0.6991585    -0.0104295    0.0118312 
   0.753250000    -0.0023224    0.0157164    -0.6850651   -0.6973881    -0.6839902   -0.6976343    -0.0105207    0.0120181 
   0.754000000    -0.0019832    0.0155944    -0.6866264   -0.6956161    -0.6857711   -0.6960110    -0.0101174    0.0117344 
   0.754750000    -0.0019747    0.0154292    -0.6881837   -0.6942338    -0.6872038   -0.6942832    -0.0100724    0.0115153 
   0.755500000    -0.0016456    0.0152447    -0.6898113   -0.6927256    -0.6887640   -0.6929184    -0.0099266    0.0114086 
   0.756250000    -0.0014046    0.0152900    -0.6913835   -0.6908358    -0.6904020   -0.6913917    -0.0099790    0.0113490 
   0.757000000    -0.0012861    0.0148860    -0.6928208   -0.6896079    -0.6919968   -0.6895325    -0.0098053    0.0112227 
   0.757750000    -0.0009199    0.0148633    -0.6944597   -0.6880072    -0.6935533   -0.6881900    -0.0097971    0.0110469 
   0.758500000    -0.0006878    0.0146896    -0.6959702   -0.6864543    -0.6950495   -0.6864827    -0.0095413    0.0108106 
   0.759250000    -0.0006823    0.0146015    -0.6973314   -0.6846886    -0.6965703   -0.6849232    -0.0094649    0.0107210 
   0.760000000    -0.0002622    0.0145315    -0.6988885   -0.6831610    -0.6980216   -0.6834176    -0.0092655    0.0105782 
   0.760750000    -0.0002249    0.0143362    -0.7004132   -0.6814076    -0.6997466   -0.6818146    -0.0092849    0.0106476 
   0.761500000    -0.0001061    0.0141394    -0.7020453   -0.6799159    -0.7011454   -0.6802378    -0.0090930    0.0104453 
   0.762250000     0.0001894    0.0140686    -0.7034996   -0.6781215    -0.7027943   -0.6785395    -0.0088576    0.0101330 
   0.763000000     0.0002837    0.0140005    -0.7051119   -0.6766366    -0.7041067   -0.6771632    -0.0089499    0.0099665 
   0.763750000     0.0005391    0.0139012    -0.7065634   -0.6749051    -0.7059370   -0.6754034    -0.0087540    0.0099229 
   0.764500000     0.0008076    0.0137639    -0.7082691   -0.6732323    -0.7072209   -0.6739149    -0.0085273    0.0098036 
   0.765250000     0.0008264    0.0137469    -0.7094525   -0.6716466    -0.7088865   -0.6723143    -0.0085388    0.0096998 
   0.766000000     0.0007876    0.0134003    -0.7110633   -0.6703544    -0.7103986   -0.6708326    -0.0083313    0.0095001 
   0.766750000     0.0009967    0.0131877    -0.7125488   -0.6686060    -0.7120348   -0.6690113    -0.0082157    0.0094762 
   0.767500000     0.0012002    0.0130127    -0.7141517   -0.6667238    -0.7136320   -0.6676611    -0.0079615    0.0092580 
   0.768250000     0.0015028    0.0129346    -0.7156313   -0.6651555    -0.7151270   -0.6660305    -0.0080488    0.0091854 
   0.769000000     0.0016650    0.0127717    -0.7172739   -0.6633520    -0.7165416   -0.6643802    -0.0077263    0.0091136 
   0.769750000     0.0016126    0.0126343    -0.7189314   -0.6617283    -0.7181204   -0.6625265    -0.0079086    0.0086820 
   0.770500000     0.0017045    0.0124866    -0.7204576   -0.6601686    -0.7198787   -0.6611970    -0.0077811    0.0086253 
   0.771250000     0.0019222    0.0121954    -0.7216783   -0.6585228    -0.7213724   -0.6595553    -0.0074558    0.0085008 
   0.772000000     0.0019035    0.0121466    -0.7231577   -0.6567595    -0.7229648   -0.6578559    -0.0073598    0.0083824 
   0.772750000     0.0018889    0.0119505    -0.7248460   -0.6552231    -0.7245584   -0.6560512    -0.0073176    0.0083709 
   0.773500000     0.0019145    0.0117647    -0.7263123   -0.6533518    -0.7260330   -0.6545449    -0.0072727    0.0080942 
   0.774250000     0.0020944    0.0115523    -0.7276888   -0.6517124    -0.7275144   -0.6527916    -0.0069948    0.0079991 
   0.775000000     0.0021750    0.0113289    -0.7292297   -0.6500112    -0.7292091   -0.6512203    -0.0068802    0.0079068 
   0.775750000     0.0021832    0.0113088    -0.7311047   -0.6481480    -0.7307481   -0.6494650    -0.0071351    0.0075329 
   0.776500000     0.0022055    0.0111887    -0.7323846   -0.6463100    -0.7322381   -0.6478090    -0.0066950    0.0073985 
   0.777250000     0.0023405    0.0109260    -0.7338045   -0.6445901    -0.7335079   -0.6459965    -0.0066207    0.0073238 
   0.778000000     0.0023342    0.0108539    -0.7353218   -0.6428433    -0.7351638   -0.6443518    -0.0066040    0.0072304 
   0.778750000     0.0023284    0.0106510    -0.7370067   -0.6410661    -0.7367525   -0.6426860    -0.0065187    0.0070700 
   0.779500000     0.0023751    0.0104229    -0.7384810   -0.6393771    -0.7381726   -0.6411508    -0.0064011    0.0068625 
   0.780250000     0.0025212    0.0102097    -0.7399212   -0.6373417    -0.7396113   -0.6394059    -0.0064113    0.0066827 
   0.781000000     0.0025548    0.0099526    -0.7414827   -0.6356747    -0.7412556   -0.6375343    -0.0063514    0.0065224 
   0.781750000     0.0026806    0.0099124    -0.7430618   -0.6337836    -0.7425964   -0.6359029    -0.0061939    0.0063594 
   0.782500000     0.0027490    0.0096631    -0.7443775   -0.6320419    -0.7440946   -0.6340703    -0.0060933    0.0063096 
   0.783250000     0.0026104    0.0095527    -0.7459576   -0.6301099    -0.7457107   -0.6321899    -0.0059681    0.0060741 
   0.784000000     0.0027765    0.0092828    -0.7474475   -0.6284162    -0.7470654   -0.6305233    -0.0060178    0.0058379 
   0.784750000     0.0028895    0.0090582    -0.7488567   -0.6265865    -0.7486436   -0.6289526    -0.0057099    0.0057121 
   0.785500000     0.0029230    0.0089342    -0.7506609   -0.6249756    -0.7498252   -0.6271694    -0.0058232    0.0053877 
   0.786250000     0.0030073    0.0088777    -0.7521586   -0.6230987    -0.7514606   -0.6252303    -0.0058207    0.0052354 
   0.787000000     0.0030068    0.0086300    -0.7536367   -0.6211569    -0.7529407   -0.6234621    -0.0058071    0.0051112 
   0.787750000     0.0030351    0.0085633    -0.7550877   -0.6191648    -0.7545236   -0.6217637    -0.0056020    0.0049555 
   0.788500000     0.0033466    0.0082896    -0.7564469   -0.6172857    -0.7557675   -0.6200062    -0.0055125    0.0048265 
   0.789250000     0.0033534    0.0081259    -0.7580016   -0.6155677    -0.7573652   -0.6184155    -0.0055900    0.0045405 
   0.790000000     0.0034542    0.0079886    -0.7591035   -0.6138893    -0.7586972   -0.6161996    -0.0053006    0.0044430 
   0.790750000     0.0035385    0.0076302    -0.7608569   -0.6120254    -0.7600986   -0.6147828    -0.0053043    0.0041627 
   0.791500000     0.0036685    0.0076915    -0.7624161   -0.6099170    -0.7616991   -0.6124036    -0.0052924    0.0040483 
   0.792250000     0.0036675    0.0074350    -0.7639340   -0.6081073    -0.7630098   -0.6106225    -0.0052432    0.0039055 
   0.793000000     0.0038205    0.0072972    -0.7652682   -0.6064149    -0.7646146   -0.6089860    -0.0051195    0.0037346 
   0.793750000     0.0039233    0.0070896    -0.7666026   -0.6044814    -0.7659722   -0.6071846    -0.0050743    0.0034626 
   0.794500000     0.0038907    0.0069572    -0.7682850   -0.6025310    -0.7673505   -0.6054112    -0.0050547    0.0032980 
   0.795250000     0.0041508    0.0068186    -0.7693914   -0.6007881    -0.7688682   -0.6032924    -0.0047661    0.0033028 
   0.796000000     0.0042092    0.0066143    -0.7708136   -0.5991060    -0.7702365   -0.6016057    -0.0048299    0.0027762 
   0.796750000     0.0043813    0.0064464    -0.7723429   -0.5971641    -0.7715476   -0.5997185    -0.0048430    0.0026397 
   0.797500000     0.0044008    0.0063084    -0.7737862   -0.5951935    -0.7729728   -0.5976292    -0.0047365    0.0025202 
   0.798250000     0.0046101    0.0060745    -0.7749689   -0.5933378    -0.7741866   -0.5957418    -0.0044575    0.0025659 
   0.799000000     0.0046241    0.0059044    -0.7763882   -0.5918347    -0.7757253   -0.5941519    -0.0042618    0.0022875 
   0.799750000     0.0046993    0.0057554    -0.7780604   -0.5897893    -0.7771136   -0.5921908    -0.0043014    0.0020934 
   0.800500000     0.0049621    0.0056361    -0.7789984   -0.5881278    -0.7784734   -0.5901830    -0.0040423    0.0017692 
   0.801250000     0.0049108    0.0053135    -0.7804552   -0.5863411    -0.7798284   -0.5883760    -0.0038842    0.0016535 
   0.802000000     0.0051559    0.0052361    -0.7818187   -0.5842516    -0.7811062   -0.5863301    -0.0038649    0.0015859 
   0.802750000     0.0050945    0.0048622    -0.7831849   -0.5827657    -0.7825777   -0.5845997    -0.0036825    0.0013138 
   0.803500000     0.0052382    0.0048937    -0.7844716   -0.5806118    -0.7838964   -0.5826933    -0.0035156    0.0012129 
   0.804250000     0.0053269    0.0046082    -0.7859496   -0.5789114    -0.7852466   -0.5806611    -0.0033227    0.0011358 
   0.805000000     0.0053099    0.0043563    -0.7871804   -0.5770137    -0.7866050   -0.5788431    -0.0032256    0.0008075 
   0.805750000     0.0054268    0.0042131    -0.7885146   -0.5752056    -0.7880091   -0.5768869    -0.0031361    0.0007214 
   0.806500000     0.0055128    0.0041074    -0.7897503   -0.5732926    -0.7893872   -0.5749882    -0.0029353    0.0004302 
   0.807250000     0.0054905    0.0038614    -0.7911635   -0.5712988    -0.7906597   -0.5730932    -0.0027621    0.0002490 
   0.808000000     0.0056485    0.0035993    -0.7926180   -0.5695060    -0.7917558   -0.5711523    -0.0026123    0.0002690 
   0.808750000     0.0057426    0.0033580    -0.7936063   -0.5679360    -0.7931776   -0.5692261    -0.0023737   -0.0001072 
   0.809500000     0.0056368    0.0031773    -0.7949980   -0.5659462    -0.7947311   -0.5672745    -0.0023686   -0.0002217 
   0.810250000     0.0057554    0.0030111    -0.7962081   -0.5641596    -0.7960880   -0.5652258    -0.0021038   -0.0004492 
   0.811000000     0.0057058    0.0027208    -0.7976046   -0.5621616    -0.7972334   -0.5635797    -0.0019804   -0.0006118 
   0.811750000     0.0058554    0.0026265    -0.7991006   -0.5604538    -0.7983661   -0.5617197    -0.0018599   -0.0008786 
   0.812500000     0.0058638    0.0022647    -0.8002382   -0.5584201    -0.7996850   -0.5596899    -0.0016713   -0.0009092 
   0.813250000     0.0059753    0.0021399    -0.8013874   -0.5568361    -0.8011870   -0.5575139    -0.0016549   -0.0012846 
   0.814000000     0.0058000    0.0018774    -0.8028121   -0.5547385    -0.8024077   -0.5558258    -0.0014804   -0.0013492 
