! 5/26/2025 8:46:26 PM
! C:\ANRITSUVNA\DORIAN\26\V1_MEAS2.S1P
! CHANNEL.1
! TR.MEASUREMENT
! CORRECTED.DATA
! RF.CORRECTION: FULL.TWO.PORT.CAL.PORT.1.2
! AVERAGING: 1 PointByPoint
! IF.BANDWIDTH: 300HZ
! SWEEPTYPE:  FREQ.SWEEP(Linear)
! Reference Plane Port Info
! PORT:              PORT1             
! DISTANCE:          0  m              
! TIME:              0  s              
! PHASE.OFFSET:      0 °               
! LOSS:              0  dB             
! REF.LOSS:          0  dB             
! REF.FREQ:          0  Hz             
! Power Info
! POWER:             5  dBm            
! EFF.POWER:         5  dBm            
# GHZ S RI R 50.0
! FREQ.GHZ         S11RE         S11IM         
!; PortSelection: Port_1
   0.700000000     0.0048296    0.8797442  
   0.700750000     0.0099919    0.8787072  
   0.701500000     0.0147700    0.8780265  
   0.702250000     0.0198859    0.8772962  
   0.703000000     0.0247320    0.8760106  
   0.703750000     0.0295395    0.8749985  
   0.704500000     0.0346161    0.8741325  
   0.705250000     0.0396879    0.8730540  
   0.706000000     0.0447504    0.8718672  
   0.706750000     0.0494955    0.8708171  
   0.707500000     0.0543505    0.8695358  
   0.708250000     0.0594829    0.8682889  
   0.709000000     0.0645181    0.8673798  
   0.709750000     0.0695881    0.8660957  
   0.710500000     0.0745223    0.8649828  
   0.711250000     0.0797476    0.8637807  
   0.712000000     0.0848448    0.8627312  
   0.712750000     0.0900332    0.8613032  
   0.713500000     0.0951835    0.8601232  
   0.714250000     0.1004127    0.8585943  
   0.715000000     0.1056869    0.8575201  
   0.715750000     0.1111470    0.8564869  
   0.716500000     0.1164189    0.8550113  
   0.717250000     0.1220742    0.8535565  
   0.718000000     0.1276698    0.8523565  
   0.718750000     0.1332853    0.8510715  
   0.719500000     0.1385698    0.8497587  
   0.720250000     0.1442239    0.8480426  
   0.721000000     0.1498819    0.8465959  
   0.721750000     0.1553246    0.8450098  
   0.722500000     0.1610892    0.8437014  
   0.723250000     0.1661694    0.8419749  
   0.724000000     0.1717413    0.8404177  
   0.724750000     0.1770044    0.8387442  
   0.725500000     0.1824265    0.8369517  
   0.726250000     0.1877154    0.8352666  
   0.727000000     0.1928559    0.8337061  
   0.727750000     0.1981008    0.8319630  
   0.728500000     0.2031755    0.8301043  
   0.729250000     0.2082791    0.8284871  
   0.730000000     0.2131416    0.8265660  
   0.730750000     0.2181439    0.8248911  
   0.731500000     0.2230099    0.8231120  
   0.732250000     0.2278740    0.8213676  
   0.733000000     0.2324540    0.8194137  
   0.733750000     0.2371526    0.8178318  
   0.734500000     0.2419563    0.8159243  
   0.735250000     0.2468271    0.8141977  
   0.736000000     0.2516041    0.8123090  
   0.736750000     0.2562316    0.8103113  
   0.737500000     0.2607926    0.8084509  
   0.738250000     0.2654538    0.8063819  
   0.739000000     0.2700631    0.8043485  
   0.739750000     0.2747963    0.8025123  
   0.740500000     0.2788722    0.8003824  
   0.741250000     0.2837833    0.7982190  
   0.742000000     0.2882929    0.7959927  
   0.742750000     0.2928177    0.7935715  
   0.743500000     0.2972847    0.7913118  
   0.744250000     0.3016450    0.7892004  
   0.745000000     0.3060993    0.7864955  
   0.745750000     0.3106201    0.7840286  
   0.746500000     0.3150412    0.7816540  
   0.747250000     0.3192595    0.7790377  
   0.748000000     0.3237330    0.7763706  
   0.748750000     0.3281387    0.7735690  
   0.749500000     0.3324042    0.7709530  
   0.750250000     0.3367442    0.7682046  
   0.751000000     0.3412343    0.7655468  
   0.751750000     0.3453020    0.7626411  
   0.752500000     0.3495342    0.7597635  
   0.753250000     0.3539155    0.7569745  
   0.754000000     0.3581733    0.7544191  
   0.754750000     0.3623962    0.7512347  
   0.755500000     0.3665118    0.7484009  
   0.756250000     0.3709355    0.7458840  
   0.757000000     0.3752025    0.7424947  
   0.757750000     0.3795281    0.7392833  
   0.758500000     0.3834987    0.7365583  
   0.759250000     0.3878241    0.7335099  
   0.760000000     0.3918345    0.7304273  
   0.760750000     0.3960039    0.7268581  
   0.761500000     0.4002142    0.7239591  
   0.762250000     0.4044017    0.7206976  
   0.763000000     0.4083353    0.7175323  
   0.763750000     0.4122367    0.7140364  
   0.764500000     0.4161278    0.7107977  
   0.765250000     0.4201846    0.7077777  
   0.766000000     0.4242404    0.7043739  
   0.766750000     0.4281727    0.7008956  
   0.767500000     0.4322878    0.6976686  
   0.768250000     0.4362062    0.6940318  
   0.769000000     0.4402319    0.6905643  
   0.769750000     0.4440634    0.6870597  
   0.770500000     0.4478703    0.6834730  
   0.771250000     0.4519452    0.6799319  
   0.772000000     0.4556728    0.6764252  
   0.772750000     0.4595121    0.6726916  
   0.773500000     0.4632234    0.6689199  
   0.774250000     0.4670008    0.6648811  
   0.775000000     0.4706098    0.6614003  
   0.775750000     0.4742842    0.6573802  
   0.776500000     0.4777808    0.6534124  
   0.777250000     0.4814238    0.6494327  
   0.778000000     0.4850342    0.6455841  
   0.778750000     0.4885638    0.6413597  
   0.779500000     0.4918868    0.6373597  
   0.780250000     0.4953557    0.6331195  
   0.781000000     0.4989302    0.6289203  
   0.781750000     0.5022508    0.6248177  
   0.782500000     0.5053284    0.6204414  
   0.783250000     0.5084023    0.6162699  
   0.784000000     0.5117038    0.6121819  
   0.784750000     0.5149350    0.6078817  
   0.785500000     0.5179449    0.6034125  
   0.786250000     0.5209405    0.5993268  
   0.787000000     0.5239216    0.5949771  
   0.787750000     0.5269089    0.5907287  
   0.788500000     0.5299478    0.5862995  
   0.789250000     0.5329192    0.5818524  
   0.790000000     0.5354957    0.5775266  
   0.790750000     0.5385438    0.5729599  
   0.791500000     0.5414158    0.5684956  
   0.792250000     0.5442111    0.5641404  
   0.793000000     0.5468379    0.5597555  
   0.793750000     0.5496985    0.5551092  
   0.794500000     0.5522722    0.5502809  
   0.795250000     0.5550487    0.5458100  
   0.796000000     0.5576519    0.5411613  
   0.796750000     0.5603945    0.5364138  
   0.797500000     0.5630361    0.5317053  
   0.798250000     0.5656260    0.5268224  
   0.799000000     0.5680683    0.5219151  
   0.799750000     0.5706531    0.5172415  
   0.800500000     0.5732666    0.5122485  
   0.801250000     0.5756307    0.5071797  
   0.802000000     0.5780904    0.5022387  
   0.802750000     0.5804530    0.4970083  
   0.803500000     0.5829484    0.4920656  
   0.804250000     0.5852262    0.4869667  
   0.805000000     0.5873212    0.4816118  
   0.805750000     0.5896018    0.4762914  
   0.806500000     0.5915918    0.4711101  
   0.807250000     0.5934907    0.4655935  
   0.808000000     0.5955563    0.4602669  
   0.808750000     0.5976250    0.4549169  
   0.809500000     0.5995455    0.4495898  
   0.810250000     0.6011478    0.4439866  
   0.811000000     0.6027994    0.4383325  
   0.811750000     0.6044273    0.4329739  
   0.812500000     0.6059669    0.4274012  
   0.813250000     0.6073511    0.4218806  
   0.814000000     0.6085510    0.4161080  
   0.814750000     0.6100212    0.4104130  
   0.815500000     0.6110601    0.4048799  
   0.816250000     0.6122051    0.3993554  
   0.817000000     0.6131239    0.3936379  
   0.817750000     0.6144194    0.3879491  
   0.818500000     0.6152156    0.3825033  
   0.819250000     0.6158838    0.3766553  
   0.820000000     0.6166623    0.3708384  
   0.820750000     0.6174408    0.3654323  
   0.821500000     0.6181174    0.3595622  
   0.822250000     0.6185748    0.3536169  
   0.823000000     0.6190538    0.3480582  
   0.823750000     0.6192824    0.3424425  
   0.824500000     0.6198462    0.3367414  
   0.825250000     0.6205269    0.3312048  
   0.826000000     0.6203989    0.3253132  
   0.826750000     0.6205603    0.3196760  
   0.827500000     0.6207804    0.3141657  
   0.828250000     0.6207706    0.3084518  
   0.829000000     0.6211253    0.3029429  
   0.829750000     0.6208809    0.2972516  
   0.830500000     0.6208227    0.2918383  
   0.831250000     0.6207951    0.2859890  
   0.832000000     0.6204841    0.2805674  
   0.832750000     0.6202760    0.2750379  
   0.833500000     0.6200913    0.2694319  
   0.834250000     0.6198368    0.2639640  
   0.835000000     0.6191875    0.2581831  
   0.835750000     0.6188760    0.2530385  
   0.836500000     0.6182641    0.2472997  
   0.837250000     0.6178843    0.2418252  
   0.838000000     0.6170011    0.2361475  
   0.838750000     0.6162748    0.2307974  
   0.839500000     0.6154191    0.2251180  
   0.840250000     0.6146519    0.2195275  
   0.841000000     0.6137487    0.2141304  
   0.841750000     0.6127461    0.2084053  
   0.842500000     0.6114628    0.2029498  
   0.843250000     0.6104552    0.1973947  
   0.844000000     0.6090411    0.1918024  
   0.844750000     0.6075931    0.1865176  
   0.845500000     0.6062370    0.1808021  
   0.846250000     0.6046396    0.1754414  
   0.847000000     0.6031799    0.1698869  
   0.847750000     0.6015642    0.1642811  
   0.848500000     0.5998546    0.1588923  
   0.849250000     0.5980418    0.1534578  
   0.850000000     0.5962330    0.1480047  
   0.850750000     0.5943255    0.1424510  
   0.851500000     0.5923855    0.1368726  
   0.852250000     0.5902025    0.1315109  
   0.853000000     0.5881044    0.1260640  
   0.853750000     0.5860193    0.1207440  
   0.854500000     0.5833508    0.1154595  
   0.855250000     0.5812176    0.1098893  
   0.856000000     0.5786199    0.1044804  
   0.856750000     0.5761365    0.0993787  
   0.857500000     0.5734298    0.0941230  
   0.858250000     0.5704752    0.0887030  
   0.859000000     0.5676870    0.0834023  
   0.859750000     0.5645327    0.0782414  
   0.860500000     0.5612004    0.0732672  
   0.861250000     0.5581261    0.0682687  
   0.862000000     0.5548343    0.0636185  
   0.862750000     0.5514472    0.0587851  
   0.863500000     0.5479071    0.0542025  
   0.864250000     0.5445005    0.0496203  
   0.865000000     0.5409376    0.0453884  
   0.865750000     0.5376354    0.0410654  
   0.866500000     0.5340015    0.0367347  
   0.867250000     0.5304414    0.0327325  
   0.868000000     0.5267860    0.0285240  
   0.868750000     0.5231289    0.0243688  
   0.869500000     0.5192927    0.0205149  
   0.870250000     0.5156824    0.0165244  
   0.871000000     0.5117626    0.0125544  
   0.871750000     0.5078319    0.0088947  
   0.872500000     0.5037966    0.0051326  
   0.873250000     0.4998975    0.0014896  
   0.874000000     0.4958372   -0.0019515  
   0.874750000     0.4917111   -0.0050644  
   0.875500000     0.4875788   -0.0087389  
   0.876250000     0.4835421   -0.0117782  
   0.877000000     0.4793093   -0.0150860  
   0.877750000     0.4751348   -0.0182263  
   0.878500000     0.4709059   -0.0215770  
   0.879250000     0.4667678   -0.0244430  
   0.880000000     0.4624032   -0.0275157  
   0.880750000     0.4581811   -0.0304158  
   0.881500000     0.4538282   -0.0333077  
   0.882250000     0.4492311   -0.0362400  
   0.883000000     0.4445762   -0.0389798  
   0.883750000     0.4401260   -0.0419487  
   0.884500000     0.4351405   -0.0446023  
   0.885250000     0.4301487   -0.0470223  
   0.886000000     0.4252747   -0.0494982  
   0.886750000     0.4203888   -0.0516829  
   0.887500000     0.4152580   -0.0535921  
   0.888250000     0.4102457   -0.0556567  
   0.889000000     0.4050713   -0.0574151  
   0.889750000     0.4000249   -0.0590255  
   0.890500000     0.3949921   -0.0606782  
   0.891250000     0.3898499   -0.0621812  
   0.892000000     0.3846503   -0.0635311  
   0.892750000     0.3796727   -0.0648533  
   0.893500000     0.3742887   -0.0660993  
   0.894250000     0.3690259   -0.0672159  
   0.895000000     0.3638406   -0.0680869  
   0.895750000     0.3585259   -0.0689849  
   0.896500000     0.3532140   -0.0697815  
   0.897250000     0.3478850   -0.0703192  
   0.898000000     0.3423625   -0.0707710  
   0.898750000     0.3369137   -0.0710583  
   0.899500000     0.3314822   -0.0711593  
   0.900250000     0.3262553   -0.0711661  
   0.901000000     0.3208301   -0.0710066  
   0.901750000     0.3155288   -0.0707767  
   0.902500000     0.3101571   -0.0704330  
   0.903250000     0.3048140   -0.0698694  
   0.904000000     0.2995346   -0.0691984  
   0.904750000     0.2942863   -0.0682861  
   0.905500000     0.2890270   -0.0675023  
   0.906250000     0.2838163   -0.0663819  
   0.907000000     0.2787238   -0.0652413  
   0.907750000     0.2735704   -0.0639576  
   0.908500000     0.2685132   -0.0625889  
   0.909250000     0.2636032   -0.0611149  
   0.910000000     0.2584032   -0.0593886  
   0.910750000     0.2533357   -0.0577470  
   0.911500000     0.2484177   -0.0557139  
   0.912250000     0.2434829   -0.0535318  
   0.913000000     0.2387623   -0.0512895  
   0.913750000     0.2340423   -0.0489017  
   0.914500000     0.2293799   -0.0463849  
   0.915250000     0.2248702   -0.0436005  
   0.916000000     0.2204121   -0.0408870  
   0.916750000     0.2160551   -0.0379639  
   0.917500000     0.2119046   -0.0349475  
   0.918250000     0.2078640   -0.0318005  
   0.919000000     0.2039509   -0.0286079  
   0.919750000     0.2000511   -0.0253687  
   0.920500000     0.1962689   -0.0219551  
   0.921250000     0.1924925   -0.0184452  
   0.922000000     0.1889442   -0.0149782  
   0.922750000     0.1855528   -0.0114002  
   0.923500000     0.1822327   -0.0076620  
   0.924250000     0.1789757   -0.0038919  
   0.925000000     0.1757639   -0.0000305  
   0.925750000     0.1726130    0.0039557  
   0.926500000     0.1697547    0.0079167  
   0.927250000     0.1668285    0.0120535  
   0.928000000     0.1640772    0.0161625  
   0.928750000     0.1613882    0.0205170  
   0.929500000     0.1589160    0.0248545  
   0.930250000     0.1564706    0.0293651  
   0.931000000     0.1542804    0.0340054  
   0.931750000     0.1521705    0.0385295  
   0.932500000     0.1502598    0.0431135  
   0.933250000     0.1485402    0.0478819  
   0.934000000     0.1469143    0.0524779  
   0.934750000     0.1455454    0.0573314  
   0.935500000     0.1441470    0.0621204  
   0.936250000     0.1429678    0.0668832  
   0.937000000     0.1420007    0.0716369  
   0.937750000     0.1409342    0.0763639  
   0.938500000     0.1400905    0.0812239  
   0.939250000     0.1394322    0.0860631  
   0.940000000     0.1387614    0.0908230  
   0.940750000     0.1384477    0.0958427  
   0.941500000     0.1380013    0.1005812  
   0.942250000     0.1377444    0.1054220  
   0.943000000     0.1376624    0.1103484  
   0.943750000     0.1375785    0.1152751  
   0.944500000     0.1378476    0.1200974  
   0.945250000     0.1379732    0.1249398  
   0.946000000     0.1384909    0.1298739  
   0.946750000     0.1387684    0.1347341  
   0.947500000     0.1393082    0.1396488  
   0.948250000     0.1400719    0.1443832  
   0.949000000     0.1407983    0.1492583  
   0.949750000     0.1416359    0.1540642  
   0.950500000     0.1426850    0.1590010  
   0.951250000     0.1437247    0.1638545  
   0.952000000     0.1449332    0.1687393  
   0.952750000     0.1462510    0.1736915  
   0.953500000     0.1476961    0.1786132  
   0.954250000     0.1494255    0.1836231  
   0.955000000     0.1512098    0.1886401  
   0.955750000     0.1532348    0.1936147  
   0.956500000     0.1553928    0.1984724  
   0.957250000     0.1577570    0.2033205  
   0.958000000     0.1603456    0.2081240  
   0.958750000     0.1630320    0.2126709  
   0.959500000     0.1657323    0.2173023  
   0.960250000     0.1686852    0.2216779  
   0.961000000     0.1717881    0.2259688  
   0.961750000     0.1748239    0.2304269  
   0.962500000     0.1779861    0.2345670  
   0.963250000     0.1812010    0.2386915  
   0.964000000     0.1845561    0.2428592  
   0.964750000     0.1880899    0.2469160  
   0.965500000     0.1916792    0.2509331  
   0.966250000     0.1953735    0.2548529  
   0.967000000     0.1992203    0.2586688  
   0.967750000     0.2032193    0.2624079  
   0.968500000     0.2072596    0.2661110  
   0.969250000     0.2114728    0.2695976  
   0.970000000     0.2156876    0.2728677  
   0.970750000     0.2199841    0.2762792  
   0.971500000     0.2243828    0.2794491  
   0.972250000     0.2287407    0.2825933  
   0.973000000     0.2333866    0.2856429  
   0.973750000     0.2378378    0.2885973  
   0.974500000     0.2424188    0.2914402  
   0.975250000     0.2471664    0.2941858  
   0.976000000     0.2518023    0.2968755  
   0.976750000     0.2566859    0.2994164  
   0.977500000     0.2616253    0.3020408  
   0.978250000     0.2666471    0.3045407  
   0.979000000     0.2715994    0.3069158  
   0.979750000     0.2768925    0.3091871  
   0.980500000     0.2820547    0.3112569  
   0.981250000     0.2874107    0.3131676  
   0.982000000     0.2926331    0.3149281  
   0.982750000     0.2980419    0.3167446  
   0.983500000     0.3034516    0.3182943  
   0.984250000     0.3088301    0.3198369  
   0.985000000     0.3143086    0.3211398  
   0.985750000     0.3197689    0.3224787  
   0.986500000     0.3254507    0.3235385  
   0.987250000     0.3310670    0.3247547  
   0.988000000     0.3367500    0.3256311  
   0.988750000     0.3422549    0.3265655  
   0.989500000     0.3481017    0.3273629  
   0.990250000     0.3538865    0.3278018  
   0.991000000     0.3596003    0.3282751  
   0.991750000     0.3654126    0.3285514  
   0.992500000     0.3710481    0.3286730  
   0.993250000     0.3768515    0.3287457  
   0.994000000     0.3824635    0.3287553  
   0.994750000     0.3883387    0.3286053  
   0.995500000     0.3939800    0.3284020  
   0.996250000     0.3998228    0.3279501  
   0.997000000     0.4055535    0.3276647  
   0.997750000     0.4112385    0.3270551  
   0.998500000     0.4170186    0.3263985  
   0.999250000     0.4225028    0.3255079  
   1.000000000     0.4282072    0.3245477  
