! 5/26/2025 8:59:04 PM
! C:\ANRITSUVNA\DORIAN\26\V2_THRU2.S2P
! CHANNEL.1
! TR.MEASUREMENT
! CORRECTED.DATA
! RF.CORRECTION: FULL.TWO.PORT.CAL.PORT.1.2
! AVERAGING: 1 PointByPoint
! IF.BANDWIDTH: 300HZ
! SWEEPTYPE:  FREQ.SWEEP(Linear)
! Reference Plane Port Info
! PORT:              PORT1              PORT2             
! DISTANCE:          0  m               0  m              
! TIME:              0  s               0  s              
! PHASE.OFFSET:      0 °                0 °               
! LOSS:              0  dB              0  dB             
! REF.LOSS:          0  dB              0  dB             
! REF.FREQ:          0  Hz              0  Hz             
! Power Info
! POWER:             5  dBm             5  dBm            
! EFF.POWER:         5  dBm             5  dBm            
# GHZ S RI R 50.0
! FREQ.GHZ         S11RE         S11IM         S21RE         S21IM         S12RE         S12IM         S22RE         S22IM         
!; PortSelection: Port_12
   0.700000000    -0.0326794    0.0152896    -0.1553065   -0.9726025    -0.1557901   -0.9728389    -0.0319285    0.0147108 
   0.700750000    -0.0325093    0.0153952    -0.1569570   -0.9724548    -0.1579570   -0.9727170    -0.0316841    0.0150471 
   0.701500000    -0.0323390    0.0154401    -0.1588568   -0.9721875    -0.1597243   -0.9725034    -0.0318238    0.0147531 
   0.702250000    -0.0321681    0.0155995    -0.1608436   -0.9718949    -0.1616148   -0.9723204    -0.0316495    0.0149194 
   0.703000000    -0.0320578    0.0154400    -0.1628233   -0.9719084    -0.1635492   -0.9716760    -0.0314395    0.0149803 
   0.703750000    -0.0318515    0.0156238    -0.1648619   -0.9715915    -0.1654422   -0.9714415    -0.0312723    0.0152397 
   0.704500000    -0.0317928    0.0155634    -0.1667216   -0.9713925    -0.1674517   -0.9711244    -0.0311246    0.0151277 
   0.705250000    -0.0315549    0.0155849    -0.1685430   -0.9712569    -0.1694623   -0.9713188    -0.0310530    0.0151560 
   0.706000000    -0.0313625    0.0156839    -0.1705540   -0.9711779    -0.1714756   -0.9708135    -0.0308279    0.0155309 
   0.706750000    -0.0312660    0.0158808    -0.1722446   -0.9709964    -0.1732159   -0.9705384    -0.0307514    0.0151883 
   0.707500000    -0.0312579    0.0157440    -0.1740594   -0.9706331    -0.1750569   -0.9701545    -0.0305780    0.0155076 
   0.708250000    -0.0309812    0.0157395    -0.1759595   -0.9706184    -0.1771148   -0.9697929    -0.0304257    0.0152649 
   0.709000000    -0.0308647    0.0159470    -0.1778001   -0.9702769    -0.1790947   -0.9695620    -0.0302730    0.0154975 
   0.709750000    -0.0306283    0.0159442    -0.1797901   -0.9701877    -0.1809376   -0.9694000    -0.0301456    0.0156416 
   0.710500000    -0.0305731    0.0159727    -0.1817570   -0.9696960    -0.1828842   -0.9690773    -0.0299518    0.0154366 
   0.711250000    -0.0303297    0.0160683    -0.1838581   -0.9697471    -0.1850241   -0.9686394    -0.0297689    0.0156747 
   0.712000000    -0.0302080    0.0161390    -0.1855864   -0.9692569    -0.1868616   -0.9684069    -0.0297458    0.0154064 
   0.712750000    -0.0300608    0.0160728    -0.1874522   -0.9693758    -0.1887266   -0.9679422    -0.0294693    0.0157584 
   0.713500000    -0.0297720    0.0161937    -0.1895235   -0.9689184    -0.1907464   -0.9677685    -0.0293205    0.0156513 
   0.714250000    -0.0297298    0.0160907    -0.1914520   -0.9686135    -0.1925133   -0.9674033    -0.0291079    0.0158061 
   0.715000000    -0.0294637    0.0162505    -0.1932443   -0.9683108    -0.1947561   -0.9669818    -0.0290213    0.0156753 
   0.715750000    -0.0292778    0.0162259    -0.1953983   -0.9680030    -0.1964462   -0.9665899    -0.0288959    0.0155595 
   0.716500000    -0.0292052    0.0162271    -0.1974121   -0.9674571    -0.1983965   -0.9663284    -0.0286982    0.0157498 
   0.717250000    -0.0289026    0.0162047    -0.1990845   -0.9671349    -0.2001946   -0.9658767    -0.0285391    0.0157641 
   0.718000000    -0.0285194    0.0162424    -0.2010534   -0.9668832    -0.2022948   -0.9653681    -0.0284310    0.0157165 
   0.718750000    -0.0284917    0.0163986    -0.2028571   -0.9662081    -0.2042758   -0.9651667    -0.0282860    0.0157192 
   0.719500000    -0.0283314    0.0163591    -0.2047895   -0.9656054    -0.2058867   -0.9648566    -0.0280778    0.0154107 
   0.720250000    -0.0282326    0.0163628    -0.2067050   -0.9653104    -0.2078722   -0.9644039    -0.0278612    0.0153632 
   0.721000000    -0.0278571    0.0163008    -0.2087784   -0.9647632    -0.2099397   -0.9637811    -0.0278676    0.0153081 
   0.721750000    -0.0277495    0.0163135    -0.2105990   -0.9643265    -0.2116249   -0.9634430    -0.0276526    0.0149621 
   0.722500000    -0.0276387    0.0164646    -0.2123092   -0.9638922    -0.2134318   -0.9630118    -0.0276762    0.0153776 
   0.723250000    -0.0272431    0.0163931    -0.2145135   -0.9632642    -0.2154768   -0.9625069    -0.0274869    0.0152952 
   0.724000000    -0.0272655    0.0163385    -0.2159238   -0.9626665    -0.2171316   -0.9620326    -0.0274368    0.0151456 
   0.724750000    -0.0271209    0.0165463    -0.2179773   -0.9624216    -0.2192195   -0.9616351    -0.0273336    0.0150123 
   0.725500000    -0.0268540    0.0164843    -0.2201235   -0.9619648    -0.2210902   -0.9613376    -0.0272279    0.0151551 
   0.726250000    -0.0267413    0.0163903    -0.2215654   -0.9611326    -0.2228794   -0.9607630    -0.0270821    0.0148329 
   0.727000000    -0.0265360    0.0163291    -0.2235755   -0.9604900    -0.2245317   -0.9602735    -0.0269833    0.0147184 
   0.727750000    -0.0263308    0.0165009    -0.2253708   -0.9600999    -0.2264857   -0.9600098    -0.0268564    0.0149235 
   0.728500000    -0.0262591    0.0165954    -0.2273545   -0.9596419    -0.2281755   -0.9592804    -0.0267310    0.0149414 
   0.729250000    -0.0259799    0.0164490    -0.2291189   -0.9588448    -0.2302032   -0.9590301    -0.0266468    0.0147761 
   0.730000000    -0.0258082    0.0164360    -0.2310175   -0.9584429    -0.2320442   -0.9583699    -0.0265738    0.0147269 
   0.730750000    -0.0255685    0.0163432    -0.2328201   -0.9578581    -0.2335828   -0.9576627    -0.0265212    0.0149935 
   0.731500000    -0.0254908    0.0163193    -0.2345698   -0.9572889    -0.2355346   -0.9574049    -0.0261979    0.0145892 
   0.732250000    -0.0252356    0.0162177    -0.2365126   -0.9564592    -0.2373171   -0.9567507    -0.0263363    0.0145754 
   0.733000000    -0.0252567    0.0162530    -0.2383561   -0.9559960    -0.2391649   -0.9560912    -0.0260343    0.0144720 
   0.733750000    -0.0251154    0.0162296    -0.2403432   -0.9553411    -0.2408883   -0.9558006    -0.0260735    0.0144537 
   0.734500000    -0.0249782    0.0162033    -0.2421788   -0.9545683    -0.2422955   -0.9549151    -0.0258760    0.0144243 
   0.735250000    -0.0246528    0.0161237    -0.2439783   -0.9542930    -0.2442296   -0.9545354    -0.0259530    0.0145267 
   0.736000000    -0.0246403    0.0162469    -0.2457164   -0.9536231    -0.2456988   -0.9540061    -0.0258519    0.0143365 
   0.736750000    -0.0245110    0.0160458    -0.2475276   -0.9528013    -0.2478316   -0.9532455    -0.0257787    0.0144235 
   0.737500000    -0.0243012    0.0160716    -0.2491298   -0.9524043    -0.2495660   -0.9528654    -0.0256733    0.0143962 
   0.738250000    -0.0241467    0.0159904    -0.2510727   -0.9516503    -0.2510316   -0.9523425    -0.0254987    0.0142820 
   0.739000000    -0.0241535    0.0159572    -0.2528402   -0.9510993    -0.2524016   -0.9515754    -0.0256619    0.0144338 
   0.739750000    -0.0238810    0.0160045    -0.2544501   -0.9503168    -0.2545033   -0.9511543    -0.0252523    0.0140747 
   0.740500000    -0.0240155    0.0159857    -0.2563356   -0.9497449    -0.2561316   -0.9506075    -0.0252366    0.0141414 
   0.741250000    -0.0237740    0.0160010    -0.2579722   -0.9491816    -0.2578022   -0.9502074    -0.0252185    0.0142676 
   0.742000000    -0.0236051    0.0160228    -0.2601562   -0.9487634    -0.2593332   -0.9494913    -0.0250427    0.0141406 
   0.742750000    -0.0236119    0.0159514    -0.2617476   -0.9482911    -0.2610770   -0.9489927    -0.0250970    0.0141709 
   0.743500000    -0.0234032    0.0159517    -0.2635143   -0.9475642    -0.2627647   -0.9482515    -0.0249170    0.0142766 
   0.744250000    -0.0232998    0.0159978    -0.2651518   -0.9471209    -0.2642687   -0.9476796    -0.0248249    0.0141521 
   0.745000000    -0.0231566    0.0158593    -0.2670168   -0.9464810    -0.2658133   -0.9470290    -0.0246548    0.0141795 
   0.745750000    -0.0229935    0.0159158    -0.2686742   -0.9460021    -0.2677124   -0.9463819    -0.0246945    0.0142535 
   0.746500000    -0.0229549    0.0159755    -0.2702885   -0.9453751    -0.2694596   -0.9459562    -0.0245304    0.0141743 
   0.747250000    -0.0228612    0.0158981    -0.2720259   -0.9446788    -0.2710343   -0.9452482    -0.0244590    0.0141225 
   0.748000000    -0.0225446    0.0159080    -0.2738287   -0.9442584    -0.2728004   -0.9446124    -0.0246260    0.0143154 
   0.748750000    -0.0224734    0.0162145    -0.2756723   -0.9435765    -0.2742926   -0.9443824    -0.0244822    0.0143080 
   0.749500000    -0.0225048    0.0162410    -0.2771429   -0.9431353    -0.2758693   -0.9434659    -0.0240630    0.0141519 
   0.750250000    -0.0221367    0.0162061    -0.2789720   -0.9426323    -0.2777125   -0.9431461    -0.0240805    0.0142089 
   0.751000000    -0.0220555    0.0160956    -0.2806916   -0.9420948    -0.2793783   -0.9423439    -0.0239731    0.0142008 
   0.751750000    -0.0218180    0.0163256    -0.2823852   -0.9415756    -0.2808246   -0.9422043    -0.0240053    0.0142241 
   0.752500000    -0.0217336    0.0162390    -0.2839253   -0.9408914    -0.2826242   -0.9414063    -0.0237499    0.0140229 
   0.753250000    -0.0215815    0.0164414    -0.2855346   -0.9405898    -0.2843015   -0.9407363    -0.0241083    0.0141997 
   0.754000000    -0.0214209    0.0167049    -0.2873609   -0.9397938    -0.2858836   -0.9402403    -0.0236838    0.0142614 
   0.754750000    -0.0212799    0.0165770    -0.2886447   -0.9394441    -0.2876014   -0.9396258    -0.0235978    0.0141929 
   0.755500000    -0.0210675    0.0166680    -0.2906331   -0.9388016    -0.2892225   -0.9390980    -0.0233832    0.0141761 
   0.756250000    -0.0209318    0.0170892    -0.2922356   -0.9379615    -0.2907754   -0.9385251    -0.0236962    0.0142695 
   0.757000000    -0.0205162    0.0169373    -0.2939157   -0.9379102    -0.2925336   -0.9378066    -0.0235414    0.0142522 
   0.757750000    -0.0204735    0.0169995    -0.2954037   -0.9371827    -0.2943216   -0.9372854    -0.0235126    0.0142286 
   0.758500000    -0.0204062    0.0170097    -0.2970228   -0.9366010    -0.2958471   -0.9366750    -0.0232523    0.0142550 
   0.759250000    -0.0201177    0.0172359    -0.2986306   -0.9360403    -0.2974001   -0.9361093    -0.0231715    0.0141859 
   0.760000000    -0.0199669    0.0174491    -0.3002190   -0.9355731    -0.2988196   -0.9356714    -0.0231616    0.0141758 
   0.760750000    -0.0197982    0.0172990    -0.3019339   -0.9348320    -0.3004966   -0.9351521    -0.0232997    0.0142104 
   0.761500000    -0.0197190    0.0173720    -0.3034722   -0.9344074    -0.3022338   -0.9344065    -0.0230331    0.0143945 
   0.762250000    -0.0196115    0.0174995    -0.3051546   -0.9336859    -0.3038524   -0.9340279    -0.0228875    0.0141032 
   0.763000000    -0.0194456    0.0176435    -0.3068052   -0.9330983    -0.3056069   -0.9333749    -0.0227927    0.0142926 
   0.763750000    -0.0191602    0.0178749    -0.3083856   -0.9327110    -0.3070352   -0.9328620    -0.0227588    0.0140965 
   0.764500000    -0.0190909    0.0178659    -0.3101657   -0.9319058    -0.3086365   -0.9323548    -0.0227438    0.0142372 
   0.765250000    -0.0191506    0.0180052    -0.3116009   -0.9313731    -0.3104310   -0.9317328    -0.0227331    0.0141687 
   0.766000000    -0.0188434    0.0179798    -0.3134852   -0.9309256    -0.3117917   -0.9311364    -0.0226510    0.0141486 
   0.766750000    -0.0186312    0.0180212    -0.3148793   -0.9303436    -0.3137860   -0.9306695    -0.0225718    0.0143786 
   0.767500000    -0.0184994    0.0180054    -0.3166559   -0.9298236    -0.3153085   -0.9303074    -0.0222089    0.0143664 
   0.768250000    -0.0183407    0.0181330    -0.3180476   -0.9291353    -0.3170950   -0.9296468    -0.0224934    0.0142812 
   0.769000000    -0.0181238    0.0182022    -0.3200016   -0.9284375    -0.3186134   -0.9289458    -0.0221009    0.0145237 
   0.769750000    -0.0180880    0.0181599    -0.3216370   -0.9278954    -0.3201303   -0.9284641    -0.0222033    0.0142031 
   0.770500000    -0.0180224    0.0182100    -0.3232056   -0.9273115    -0.3220609   -0.9277778    -0.0220994    0.0143437 
   0.771250000    -0.0176279    0.0184915    -0.3247780   -0.9267271    -0.3235870   -0.9273103    -0.0218696    0.0143960 
   0.772000000    -0.0176805    0.0184949    -0.3265368   -0.9260122    -0.3252424   -0.9267082    -0.0217956    0.0143207 
   0.772750000    -0.0175301    0.0184008    -0.3280363   -0.9257503    -0.3271003   -0.9261855    -0.0217840    0.0144840 
   0.773500000    -0.0174134    0.0184098    -0.3297154   -0.9247338    -0.3285964   -0.9259232    -0.0217467    0.0144591 
   0.774250000    -0.0172838    0.0184480    -0.3313792   -0.9240512    -0.3303806   -0.9248739    -0.0214231    0.0145658 
   0.775000000    -0.0171344    0.0184129    -0.3330141   -0.9234620    -0.3319449   -0.9245682    -0.0214068    0.0147209 
   0.775750000    -0.0169859    0.0184025    -0.3349931   -0.9229683    -0.3338639   -0.9239360    -0.0214414    0.0144843 
   0.776500000    -0.0171151    0.0183082    -0.3364879   -0.9220855    -0.3356071   -0.9234446    -0.0209961    0.0147579 
   0.777250000    -0.0168250    0.0183938    -0.3380884   -0.9214085    -0.3370284   -0.9225260    -0.0211775    0.0145749 
   0.778000000    -0.0168735    0.0184686    -0.3398639   -0.9207443    -0.3389596   -0.9221043    -0.0210208    0.0148022 
   0.778750000    -0.0168571    0.0182790    -0.3414782   -0.9201001    -0.3406030   -0.9215178    -0.0210798    0.0147131 
   0.779500000    -0.0166504    0.0182982    -0.3430461   -0.9193807    -0.3420918   -0.9209182    -0.0208517    0.0148263 
   0.780250000    -0.0166150    0.0182152    -0.3449954   -0.9187214    -0.3438557   -0.9203668    -0.0207311    0.0147524 
   0.781000000    -0.0163652    0.0182245    -0.3465078   -0.9180717    -0.3457013   -0.9195829    -0.0206350    0.0148420 
   0.781750000    -0.0163595    0.0183518    -0.3482837   -0.9172108    -0.3473870   -0.9188781    -0.0204853    0.0148962 
   0.782500000    -0.0162518    0.0181223    -0.3498791   -0.9166473    -0.3490055   -0.9183745    -0.0204731    0.0148756 
   0.783250000    -0.0163708    0.0180513    -0.3519550   -0.9158345    -0.3506430   -0.9176060    -0.0204208    0.0148376 
   0.784000000    -0.0161644    0.0180428    -0.3534949   -0.9153190    -0.3522830   -0.9170424    -0.0204316    0.0146957 
   0.784750000    -0.0160793    0.0180936    -0.3551954   -0.9146395    -0.3537690   -0.9163346    -0.0200236    0.0148866 
   0.785500000    -0.0160130    0.0180601    -0.3570862   -0.9139562    -0.3555676   -0.9155477    -0.0201771    0.0147191 
   0.786250000    -0.0160714    0.0183555    -0.3588608   -0.9133891    -0.3574950   -0.9147100    -0.0201303    0.0146139 
   0.787000000    -0.0160095    0.0180687    -0.3604988   -0.9125943    -0.3591544   -0.9141136    -0.0200904    0.0144783 
   0.787750000    -0.0162499    0.0181360    -0.3624335   -0.9118232    -0.3607705   -0.9135576    -0.0200077    0.0145740 
   0.788500000    -0.0158089    0.0181786    -0.3642039   -0.9110206    -0.3622857   -0.9126549    -0.0198085    0.0148082 
   0.789250000    -0.0157180    0.0181420    -0.3658089   -0.9100783    -0.3639497   -0.9120890    -0.0197756    0.0146930 
   0.790000000    -0.0157480    0.0182113    -0.3672863   -0.9095479    -0.3656402   -0.9113507    -0.0195134    0.0146107 
   0.790750000    -0.0156140    0.0179907    -0.3692860   -0.9088306    -0.3673286   -0.9107626    -0.0194713    0.0146023 
   0.791500000    -0.0155985    0.0181276    -0.3710517   -0.9078881    -0.3691688   -0.9098312    -0.0194148    0.0144456 
   0.792250000    -0.0156562    0.0179755    -0.3727836   -0.9073463    -0.3709087   -0.9091515    -0.0194179    0.0144232 
   0.793000000    -0.0155205    0.0181482    -0.3742433   -0.9067500    -0.3724985   -0.9083747    -0.0191947    0.0145948 
   0.793750000    -0.0154659    0.0181185    -0.3761273   -0.9059052    -0.3742486   -0.9076887    -0.0191650    0.0145564 
   0.794500000    -0.0154535    0.0180084    -0.3780053   -0.9050671    -0.3758075   -0.9070147    -0.0191657    0.0144155 
   0.795250000    -0.0153766    0.0182470    -0.3797050   -0.9044545    -0.3777886   -0.9062428    -0.0190719    0.0146248 
   0.796000000    -0.0152312    0.0183125    -0.3813388   -0.9036162    -0.3793575   -0.9052185    -0.0190079    0.0142339 
   0.796750000    -0.0151427    0.0182946    -0.3828696   -0.9028731    -0.3811373   -0.9044081    -0.0190463    0.0142456 
   0.797500000    -0.0151422    0.0182318    -0.3848967   -0.9019928    -0.3824734   -0.9035630    -0.0189242    0.0141757 
   0.798250000    -0.0150038    0.0182599    -0.3865234   -0.9013050    -0.3841684   -0.9026946    -0.0189098    0.0144587 
   0.799000000    -0.0148821    0.0182431    -0.3878203   -0.9007096    -0.3857984   -0.9022951    -0.0186295    0.0143834 
   0.799750000    -0.0148361    0.0183568    -0.3900324   -0.8998929    -0.3877942   -0.9011321    -0.0186461    0.0144271 
   0.800500000    -0.0146475    0.0184757    -0.3911885   -0.8992451    -0.3893917   -0.9004794    -0.0184185    0.0143186 
   0.801250000    -0.0146683    0.0183107    -0.3929771   -0.8985112    -0.3910412   -0.8996744    -0.0183719    0.0144732 
   0.802000000    -0.0144059    0.0185894    -0.3947110   -0.8976774    -0.3925962   -0.8986538    -0.0184533    0.0143884 
   0.802750000    -0.0143404    0.0184179    -0.3963821   -0.8969597    -0.3941625   -0.8980865    -0.0183281    0.0142876 
   0.803500000    -0.0143431    0.0186353    -0.3981374   -0.8961245    -0.3958468   -0.8970348    -0.0182514    0.0144520 
   0.804250000    -0.0141162    0.0185378    -0.3998359   -0.8955075    -0.3974234   -0.8962899    -0.0182265    0.0144307 
   0.805000000    -0.0140118    0.0184251    -0.4014467   -0.8945754    -0.3990379   -0.8955596    -0.0181019    0.0143235 
   0.805750000    -0.0139389    0.0185639    -0.4030511   -0.8938127    -0.4007047   -0.8947036    -0.0180251    0.0143937 
   0.806500000    -0.0137791    0.0186985    -0.4046317   -0.8930504    -0.4023603   -0.8938445    -0.0178189    0.0144214 
   0.807250000    -0.0138571    0.0185149    -0.4062409   -0.8925037    -0.4041671   -0.8929074    -0.0176922    0.0144235 
   0.808000000    -0.0135925    0.0185984    -0.4079877   -0.8918764    -0.4055548   -0.8920524    -0.0177203    0.0146890 
   0.808750000    -0.0133786    0.0185806    -0.4092539   -0.8911347    -0.4072212   -0.8911616    -0.0174303    0.0144756 
   0.809500000    -0.0134778    0.0184079    -0.4111261   -0.8901725    -0.4089505   -0.8904514    -0.0173768    0.0144935 
   0.810250000    -0.0133135    0.0185826    -0.4127828   -0.8895205    -0.4107819   -0.8895789    -0.0171593    0.0146059 
   0.811000000    -0.0133099    0.0183532    -0.4143732   -0.8887857    -0.4123867   -0.8887069    -0.0170913    0.0146403 
   0.811750000    -0.0131478    0.0186431    -0.4160112   -0.8879836    -0.4137248   -0.8881393    -0.0168483    0.0146700 
   0.812500000    -0.0129024    0.0184489    -0.4176925   -0.8871807    -0.4154170   -0.8870011    -0.0168798    0.0148588 
   0.813250000    -0.0128309    0.0185737    -0.4191000   -0.8866647    -0.4170359   -0.8860537    -0.0166106    0.0146179 
   0.814000000    -0.0128979    0.0183529    -0.4208348   -0.8857170    -0.4186147   -0.8854260    -0.0165352    0.0148445 
